
**** 11/10/25 20:54:51 ******* PSpice Lite (March 2016) ******* ID# 10813 ****

 ** Profile: "SCHEMATIC1-rej"  [ C:\Users\crist\Desktop\test\proiect-cef2-pspicefiles\schematic1\rej.sim ] 


 ****     CIRCUIT DESCRIPTION


******************************************************************************




** Creating circuit file "rej.cir" 
** WARNING: THIS AUTOMATICALLY GENERATED FILE MAY BE OVERWRITTEN BY SUBSEQUENT SIMULATIONS

*Libraries: 
* Profile Libraries :
* Local Libraries :
.LIB "C:/Users/crist/Desktop/lib_modelepspice_anexa_1/lib_modelepspice_anexa_1/modele_a1_lib/1n4148.lib" 
.LIB "C:/Users/crist/Desktop/lib_modelepspice_anexa_1/lib_modelepspice_anexa_1/modele_a1_lib/bc807-25.lib" 
.LIB "C:/Users/crist/Desktop/lib_modelepspice_anexa_1/lib_modelepspice_anexa_1/modele_a1_lib/bc817-25.lib" 
.LIB "C:/Users/crist/Desktop/lib_modelepspice_anexa_1/lib_modelepspice_anexa_1/modele_a1_lib/bc846b.lib" 
.LIB "C:/Users/crist/Desktop/lib_modelepspice_anexa_1/lib_modelepspice_anexa_1/modele_a1_lib/bc856b.lib" 
.LIB "C:/Users/crist/Desktop/lib_modelepspice_anexa_1/lib_modelepspice_anexa_1/modele_a1_lib/bzx84c2v7.lib" 
.LIB "C:/Users/crist/Desktop/lib_modelepspice_anexa_1/lib_modelepspice_anexa_1/modele_a1_lib/bzx84c5v1.lib" 
.LIB "C:/Users/crist/Desktop/lib_modelepspice_anexa_1/lib_modelepspice_anexa_1/modele_a1_lib/bzx84c5v6.lib" 
.LIB "C:/Users/crist/Desktop/lib_modelepspice_anexa_1/lib_modelepspice_anexa_1/modele_a1_lib/bzx84c6v2.lib" 
.LIB "C:/Users/crist/Desktop/lib_modelepspice_anexa_1/lib_modelepspice_anexa_1/modele_a1_lib/bzx84c6v8.lib" 
.LIB "C:/Users/crist/Desktop/lib_modelepspice_anexa_1/lib_modelepspice_anexa_1/modele_a1_lib/bzx84c8v2.lib" 
.LIB "C:/Users/crist/Desktop/lib_modelepspice_anexa_1/lib_modelepspice_anexa_1/modele_a1_lib/bzx84c10.lib" 
.LIB "C:/Users/crist/Desktop/lib_modelepspice_anexa_1/lib_modelepspice_anexa_1/modele_a1_lib/irfr120npbf.lib" 
.LIB "C:/Users/crist/Desktop/lib_modelepspice_anexa_1/lib_modelepspice_anexa_1/modele_a1_lib/mjd31cg.lib" 
.LIB "C:/Users/crist/Desktop/lib_modelepspice_anexa_1/lib_modelepspice_anexa_1/modele_a1_lib/mjd32cg.lib" 
.LIB "C:/Users/crist/Desktop/lib_modelepspice_anexa_1/lib_modelepspice_anexa_1/modele_a1_lib/mmbfj177lt1g.lib" 
.LIB "C:/Users/crist/Desktop/lib_modelepspice_anexa_1/lib_modelepspice_anexa_1/modele_a1_lib/mmbfj309lt1g.lib" 
* From [PSPICE NETLIST] section of C:\Users\crist\AppData\Roaming\SPB_Data\cdssetup\OrCAD_PSpice\17.2.0\PSpice.ini file:
.lib "nomd.lib" 

*Analysis directives: 
.TRAN  0 5ms 0 
.OPTIONS ADVCONV
.PROBE64 V(alias(*)) I(alias(*)) W(alias(*)) D(alias(*)) NOISE(alias(*)) 
.INC "..\SCHEMATIC1.net" 



**** INCLUDING SCHEMATIC1.net ****
* source PROIECT-CEF2
X_Q1         N00240 N00240 N00244 BC856/INF
X_Q2         N00521 N00240 N00280 BC856/INF
X_Q3         N00240 N00248 N00529 BC846/INF
X_Q4         N00521 N04898 N00525 BC846/INF
X_Q6         VIN N00521 N00829 BC846/INF
Q_Q8         N00521 N01231 0 BC817-25 
Q_Q7         VIN N00248 N02192 BC817-25 
X_Q9         N00521 N01333 VOUT BC846/INF
V_V1         VIN N18741 10.8Vdc
D_D4         0 N00248 BZX84C2V7/PLP 
R_R1         N00248 VIN  1.8k TC=0,0 
R_R2         N00244 VIN  100 TC=0,0 
R_R3         N00280 VIN  100 TC=0,0 
R_R4         N00920 N00529  100 TC=0,0 
R_R5         N00920 N00525  100 TC=0,0 
R_R6         N07289 VIN  2.2k TC=0,0 
R_R7         N01270 N01231  330 TC=0,0 
R_R8         0 N01270  68 TC=0,0 
R_R10         N12054 N02192  2.2k TC=0,0 
R_R11         0 N07222  10k TC=0,0 
R_R12         N16734 N04894  3.9k TC=0,0 
R_R14         N01633 N01641  100 TC=0,0 
R_R15         N01641 VOUT  1k TC=0,0 
R_R16         N13888 VOUT  1k TC=0,0 
R_R18         0 N17604  22 TC=0,0 
R_R19         N17612 VOUT  100 TC=0,0 
R_R20         N01333 VOUT  1 TC=0,0 
X_R21         N01633 N04898 N04894 POT PARAMS: SET=0 VALUE=5k
X_Q10         N00920 N07289 N07222 BC846/INF
R_R22         N01231 N12054  150 TC=0,0 
D_D5         N13888 0 D1N4148_1 
D_D6         N07289 0 D1N4148_1 
X_Q11         VIN N00829 N01333 BC846/INF
R_R23         0 N16734  1k TC=0,0 
R_R24         N17608 N17612  100 TC=0,0 
R_R25         N17604 N17608  22 TC=0,0 
V_V2         N18741 0  
+SIN 1.3 1.2 1kHz 0 0 0

**** RESUMING rej.cir ****
.END

**** 11/10/25 20:54:51 ******* PSpice Lite (March 2016) ******* ID# 10813 ****

 ** Profile: "SCHEMATIC1-rej"  [ C:\Users\crist\Desktop\test\proiect-cef2-pspicefiles\schematic1\rej.sim ] 


 ****     Diode MODEL PARAMETERS


******************************************************************************




               BZX84C2V7/PLP   D1N4148_1       
          IS  110.880000E-18    2.682000E-09 
           N     .92657         1.836        
         ISR    1.515900E-06    1.565000E-09 
         IKF  147.68             .04417      
          BV    2.7639        100            
         IBV     .06977       100.000000E-06 
          RS     .85899          .5664       
          TT   17.889000E-09   11.540000E-09 
         CJO  344.690000E-12    4.000000E-12 
          VJ     .72935          .5          
           M     .31964          .3333       


**** 11/10/25 20:54:51 ******* PSpice Lite (March 2016) ******* ID# 10813 ****

 ** Profile: "SCHEMATIC1-rej"  [ C:\Users\crist\Desktop\test\proiect-cef2-pspicefiles\schematic1\rej.sim ] 


 ****     BJT MODEL PARAMETERS


******************************************************************************




               BC817-25        BC856           BC846           
               NPN             PNP             NPN             
       LEVEL    1               1               1            
          IS   32.530000E-15   28.000000E-15   45.000000E-15 
          BF  294.4           284.436         516.544        
          NF    1               1               1.01         
         VAF  100              43              74            
         IKF     .8311           .38             .708        
         ISE  318.500000E-15   24.903000E-15   55.668000E-15 
          NE    1.642           2.234           2.567        
          BR    5.855           4.8             7.745        
          NR    1               1.005           1.015        
         VAR                    6.96           14            
         IKR     .1075           .932           1            
         ISC  199.700000E-15  125.000000E-15    1.084000E-12 
          NC    2.09            2.074           4.063        
          NK     .5663                                       
         ISS    0               0               0            
          RB                    2.2             9            
         RBM                    1.5             4.5          
         IRB                  100.000000E-06  100.000000E-06 
          RE    0                .3              .35         
          RC     .4196          2.251           1.445        
         CJE   71.140000E-12   11.800000E-12   13.050000E-12 
         VJE     .5             1                .69         
         MJE     .3333           .435            .375        
         CJC   24.290000E-12    8.700000E-12    4.100000E-12 
         VJC     .5              .9              .75         
         MJC     .3333           .6              .42         
        XCJC    1                .65             .65         
         CJS    0               0               0            
         VJS     .75             .75             .75         
          FC                     .75             .75         
          TF  660.800000E-12  600.000000E-12  620.000000E-12 
         XTF   88.29            6.5            68            
         VTF   10               2               1            
         ITF    2.569            .314            .72         
         PTF                    1               1            
          TR   10.000000E-09    2.604000E-09    2.500000E-09 
         XTB    1.5             1.6             1.4          
         XTI                    3.3             3.2          
          KF    0               5.000000E-15   10.000000E-15 
          AF    1               1               1            
          CN    2.42            2.2             2.42         
           D     .87             .52             .87         


**** 11/10/25 20:54:51 ******* PSpice Lite (March 2016) ******* ID# 10813 ****

 ** Profile: "SCHEMATIC1-rej"  [ C:\Users\crist\Desktop\test\proiect-cef2-pspicefiles\schematic1\rej.sim ] 


 ****     INITIAL TRANSIENT SOLUTION       TEMPERATURE =   27.000 DEG C


******************************************************************************



 NODE   VOLTAGE     NODE   VOLTAGE     NODE   VOLTAGE     NODE   VOLTAGE


(  VIN)   12.1000  ( VOUT)    6.0721  (N00240)   11.5930 (N00244)   12.0990     

(N00248)    2.7013 (N00280)   12.0990 (N00521)    7.3751 (N00525)    2.2067     

(N00529)    2.2067 (N00829)    6.8265 (N00920)    2.2059 (N01231)     .3022     

(N01270)     .0516 (N01333)    6.1029 (N01633)    5.4648 (N01641)    5.5200     

(N02192)    2.0862 (N04894)    2.7048 (N04898)    2.7048 (N07222)     .1704     

(N07289)     .6867 (N12054)     .4160 (N13888)     .6887 (N16734)     .5520     

(N17604)     .5475 (N17608)    1.0950 (N17612)    3.5835 (N18741)    1.3000     

(X_Q1.4)   11.5930 (X_Q1.5)   11.5930 (X_Q1.6)   11.5930 (X_Q1.7)   12.0990     

(X_Q1.8)   12.0990 (X_Q2.4)   11.5930 (X_Q2.5)   11.5930 (X_Q2.6)    7.3751     

(X_Q2.7)   12.0990 (X_Q2.8)   12.0990 (X_Q3.4)    2.7013 (X_Q3.5)    2.7013     

(X_Q3.6)   11.5930 (X_Q3.7)    2.2067 (X_Q3.8)    2.2067 (X_Q4.4)    2.7048     

(X_Q4.5)    2.7048 (X_Q4.6)    7.3751 (X_Q4.7)    2.2067 (X_Q4.8)    2.2067     

(X_Q6.4)    7.3751 (X_Q6.5)    7.3751 (X_Q6.6)   12.1000 (X_Q6.7)    6.8265     

(X_Q6.8)    6.8265 (X_Q9.4)    6.1029 (X_Q9.5)    6.1029 (X_Q9.6)    7.3751     

(X_Q9.7)    6.0721 (X_Q9.8)    6.0721 (X_Q10.4)     .6867                       

(X_Q10.5)     .6867                   (X_Q10.6)    2.2059                       

(X_Q10.7)     .1704                   (X_Q10.8)     .1704                       

(X_Q11.4)    6.8265                   (X_Q11.5)    6.8265                       

(X_Q11.6)   12.1000                   (X_Q11.7)    6.1029                       

(X_Q11.8)    6.1029                   




    VOLTAGE SOURCE CURRENTS
    NAME         CURRENT

    V_V1        -4.200E-02
    V_V2        -4.200E-02

    TOTAL POWER DISSIPATION   5.08E-01  WATTS



          JOB CONCLUDED

**** 11/10/25 20:54:51 ******* PSpice Lite (March 2016) ******* ID# 10813 ****

 ** Profile: "SCHEMATIC1-rej"  [ C:\Users\crist\Desktop\test\proiect-cef2-pspicefiles\schematic1\rej.sim ] 


 ****     JOB STATISTICS SUMMARY


******************************************************************************



  Total job time (using Solver 1)   =         .11
