
**** 11/15/25 22:55:05 ******* PSpice Lite (March 2016) ******* ID# 10813 ****

 ** Profile: "SCHEMATIC1-bias"  [ c:\users\crist\desktop\schematics\proiect-cef2-pspicefiles\schematic1\bias.sim ] 


 ****     CIRCUIT DESCRIPTION


******************************************************************************




** Creating circuit file "bias.cir" 
** WARNING: THIS AUTOMATICALLY GENERATED FILE MAY BE OVERWRITTEN BY SUBSEQUENT SIMULATIONS

*Libraries: 
* Profile Libraries :
* Local Libraries :
.LIB "c:/users/crist/desktop/lib_modelepspice_anexa_1/lib_modelepspice_anexa_1/modele_a1_lib/1n4148.lib" 
.LIB "c:/users/crist/desktop/lib_modelepspice_anexa_1/lib_modelepspice_anexa_1/modele_a1_lib/bc807-25.lib" 
.LIB "c:/users/crist/desktop/lib_modelepspice_anexa_1/lib_modelepspice_anexa_1/modele_a1_lib/bc817-25.lib" 
.LIB "c:/users/crist/desktop/lib_modelepspice_anexa_1/lib_modelepspice_anexa_1/modele_a1_lib/bc846b.lib" 
.LIB "c:/users/crist/desktop/lib_modelepspice_anexa_1/lib_modelepspice_anexa_1/modele_a1_lib/bc856b.lib" 
.LIB "c:/users/crist/desktop/lib_modelepspice_anexa_1/lib_modelepspice_anexa_1/modele_a1_lib/bzx84c2v7.lib" 
.LIB "c:/users/crist/desktop/lib_modelepspice_anexa_1/lib_modelepspice_anexa_1/modele_a1_lib/bzx84c5v1.lib" 
.LIB "c:/users/crist/desktop/lib_modelepspice_anexa_1/lib_modelepspice_anexa_1/modele_a1_lib/bzx84c5v6.lib" 
.LIB "c:/users/crist/desktop/lib_modelepspice_anexa_1/lib_modelepspice_anexa_1/modele_a1_lib/bzx84c6v2.lib" 
.LIB "c:/users/crist/desktop/lib_modelepspice_anexa_1/lib_modelepspice_anexa_1/modele_a1_lib/bzx84c6v8.lib" 
.LIB "c:/users/crist/desktop/lib_modelepspice_anexa_1/lib_modelepspice_anexa_1/modele_a1_lib/bzx84c8v2.lib" 
.LIB "c:/users/crist/desktop/lib_modelepspice_anexa_1/lib_modelepspice_anexa_1/modele_a1_lib/bzx84c10.lib" 
.LIB "c:/users/crist/desktop/lib_modelepspice_anexa_1/lib_modelepspice_anexa_1/modele_a1_lib/irfr120npbf.lib" 
.LIB "c:/users/crist/desktop/lib_modelepspice_anexa_1/lib_modelepspice_anexa_1/modele_a1_lib/mjd31cg.lib" 
.LIB "c:/users/crist/desktop/lib_modelepspice_anexa_1/lib_modelepspice_anexa_1/modele_a1_lib/mjd32cg.lib" 
.LIB "c:/users/crist/desktop/lib_modelepspice_anexa_1/lib_modelepspice_anexa_1/modele_a1_lib/mmbfj177lt1g.lib" 
.LIB "c:/users/crist/desktop/lib_modelepspice_anexa_1/lib_modelepspice_anexa_1/modele_a1_lib/mmbfj309lt1g.lib" 
* From [PSPICE NETLIST] section of C:\Users\crist\AppData\Roaming\SPB_Data\cdssetup\OrCAD_PSpice\17.2.0\PSpice.ini file:
.lib "nomd.lib" 

*Analysis directives: 
.OP
.OPTIONS ADVCONV
.PROBE64 V(alias(*)) I(alias(*)) W(alias(*)) D(alias(*)) NOISE(alias(*)) 
.INC "..\SCHEMATIC1.net" 



**** INCLUDING SCHEMATIC1.net ****
* source PROIECT-CEF2
V_V1         VIN 0 12Vdc
D_D4         0 N00248 BZX84C2V7/PLP 
R_R1         N00248 VIN  1.5k TC=0,0 
R_R2         N00244 VIN  100 TC=0,0 
R_R3         N00280 VIN  100 TC=0,0 
R_R4         N00920 N22121  100 TC=0,0 
R_R5         N00920 N22111  100 TC=0,0 
R_R6         N07409 VIN  2K TC=0,0 
R_R7         N01270 N22652  330 TC=0,0 
R_R8         0 N01270  68 TC=0,0 
R_R10         N23262 N22662  1.5k TC=0,0 
R_R11         0 N22314  51 TC=0,0 
R_R12         N16734 N04894  3.9k TC=0,0 
R_R14         N01633 N01641  100 TC=0,0 
R_R15         N01641 VOUT  1k TC=0,0 
R_R16         N13888 VOUT  1k TC=0,0 
R_R18         0 N17604  22 TC=0,0 
R_R19         N17612 VOUT  100 TC=0,0 
R_R20         N01338 N25769  1 TC=0,0 
X_R21         N01633 N26390 N04894 POT PARAMS: SET=1 VALUE=5k
D_D5         N13888 0 D1N4148_1 
D_D6         N07409 0 D1N4148_1 
R_R23         0 N16734  1k TC=0,0 
R_R24         N17608 N17612  100 TC=0,0 
R_R25         N17604 N17608  22 TC=0,0 
Q_Q7         VIN N00836 N21567 QMJD31C 
Q_Q6         VIN N21567 N01338 QMJD31C 
Q_Q2         N00836 N21853 N00280 QBC856B 
Q_Q1         N21853 N21853 N00244 QBC856B 
Q_Q4         N00836 N26390 N22111 QBC846B 
Q_Q3         N21853 N00248 N22121 QBC846B 
Q_Q5         N00920 N07409 N22314 QBC846B 
Q_Q10         N00836 N01338 VOUT QBC846B 
Q_Q8         VIN N00248 N22662 QBC817-25 
Q_Q9         N00836 N22652 0 QBC817-25 
R_R26         N23600 N23262  150 TC=0,0 
R_R27         N22652 N23600  100 TC=0,0 
R_R28         N25769 VOUT  0.47 TC=0,0 
R_R29         N25769 VOUT  0.47 TC=0,0 

**** RESUMING bias.cir ****
.END

**** 11/15/25 22:55:05 ******* PSpice Lite (March 2016) ******* ID# 10813 ****

 ** Profile: "SCHEMATIC1-bias"  [ c:\users\crist\desktop\schematics\proiect-cef2-pspicefiles\schematic1\bias.sim ] 


 ****     Diode MODEL PARAMETERS


******************************************************************************




               BZX84C2V7/PLP   D1N4148_1       
          IS  110.880000E-18    2.682000E-09 
           N     .92657         1.836        
         ISR    1.515900E-06    1.565000E-09 
         IKF  147.68             .04417      
          BV    2.7639        100            
         IBV     .06977       100.000000E-06 
          RS     .85899          .5664       
          TT   17.889000E-09   11.540000E-09 
         CJO  344.690000E-12    4.000000E-12 
          VJ     .72935          .5          
           M     .31964          .3333       


**** 11/15/25 22:55:05 ******* PSpice Lite (March 2016) ******* ID# 10813 ****

 ** Profile: "SCHEMATIC1-bias"  [ c:\users\crist\desktop\schematics\proiect-cef2-pspicefiles\schematic1\bias.sim ] 


 ****     BJT MODEL PARAMETERS


******************************************************************************




               QBC817-25       QBC846B         QBC856B         QMJD31C         
               NPN             NPN             PNP             NPN             
       LEVEL    1               1               1               1            
          IS   91.980000E-15   18.220000E-15   20.140000E-15   90.620200E-12 
          EG                                                    1.05         
          BF  338.8           324.4           315.3             3.418700E+03 
          NF    1.003            .9932           .9974          1.17603      
         VAF  107.9            82              39.15           29.2393       
         IKF     .4913           .109            .079            .108267     
         ISE  446.800000E-18  289.400000E-18    6.578000E-15  537.193000E-09 
          NE    1.65            1.4             1.45            4            
          BR   29.48            8.29            8.68          367.353        
          NR    1.002            .9931           .9952          5            
         VAR   25              17.9             9.5             1.631        
         IKR     .193            .09             .09            1.15207      
         ISC    5.109000E-15    9.982000E-12   16.330000E-15    1.157540E-09 
          NC    1.071           1.763           1.15            1.49179      
         ISS    0               0               0               0            
          RB    1              10              10              22.4853       
         RBM    1               5               5.000000E-06    1.000000E-12 
         IRB    1.000000E+03    5.000000E-06    5.000000E-06    2.209370E-03 
          RE     .2126           .649            .663         100.000000E-06 
          RC     .143            .7014           .718            .138633     
         CJE   38.250000E-12   12.440000E-12   11.350000E-12  373.889000E-12 
         VJE     .7004           .7579           .7071           .67672      
         MJE     .364            .3656           .3808           .575056     
         CJC   12.700000E-12    3.347000E-12    6.395000E-12  352.510000E-12 
         VJC     .4431           .5463           .4951           .884306     
         MJC     .3983           .391            .44             .473486     
        XCJC     .4555           .6193           .6288           .1          
         CJS    0               0               0               0            
         VJS     .75             .75             .75             .75         
         MJS     .333            .333            .333            .5          
          FC     .905            .979            .9059           .8          
          TF  522.900000E-12  490.800000E-12  654.600000E-12   10.000000E-09 
         XTF  219.7             9.51            5.387           3.4926       
         VTF    3.502           2.927           6.245          12.6615       
         ITF    7.257            .3131           .2108           .052395     
          TR   70.000000E-12   90.000000E-09   55.000000E-09    3.298030E-06 
         XTB                                                  999.997000E-15 
         XTI                                                    1.000000E-12 
          KF    0               0               0               0            
          AF    1               1               1               1            
          CN    2.42            2.42            2.2             2.42         
           D     .87             .87             .52             .87         


**** 11/15/25 22:55:05 ******* PSpice Lite (March 2016) ******* ID# 10813 ****

 ** Profile: "SCHEMATIC1-bias"  [ c:\users\crist\desktop\schematics\proiect-cef2-pspicefiles\schematic1\bias.sim ] 


 ****     SMALL SIGNAL BIAS SOLUTION       TEMPERATURE =   27.000 DEG C


******************************************************************************



 NODE   VOLTAGE     NODE   VOLTAGE     NODE   VOLTAGE     NODE   VOLTAGE


(  VIN)   12.0000  ( VOUT)    3.0107  (N00244)   11.9480 (N00248)    2.7066     

(N00280)   11.9450 (N00836)    4.0431 (N00920)    2.0368 (N01270)     .0668     

(N01338)    3.0292 (N01633)    2.7080 (N01641)    2.7355 (N04894)    1.3403     

(N07409)     .6912 (N13888)     .6467 (N16734)     .2735 (N17604)     .2715     

(N17608)     .5429 (N17612)    1.7768 (N21567)    3.6139 (N21853)   11.3270     

(N22111)    2.0887 (N22121)    2.0893 (N22314)     .0534 (N22652)     .3908     

(N22662)    2.1089 (N23262)     .6362 (N23600)     .4889 (N25769)    3.0142     

(N26390)    2.7080 




    VOLTAGE SOURCE CURRENTS
    NAME         CURRENT

    V_V1        -2.885E-02

    TOTAL POWER DISSIPATION   3.46E-01  WATTS


**** 11/15/25 22:55:05 ******* PSpice Lite (March 2016) ******* ID# 10813 ****

 ** Profile: "SCHEMATIC1-bias"  [ c:\users\crist\desktop\schematics\proiect-cef2-pspicefiles\schematic1\bias.sim ] 


 ****     OPERATING POINT INFORMATION      TEMPERATURE =   27.000 DEG C


******************************************************************************






**** DIODES


NAME         D_D4                    D_D5        D_D6      
MODEL        BZX84C2V7/PLP           D1N4148_1   D1N4148_1 
ID          -6.19E-03                2.36E-03    5.65E-03 
VD          -2.71E+00                6.47E-01    6.91E-01 
REQ          4.18E+00                2.05E+01    8.82E+00 
CAP          4.49E-09                5.72E-10    1.32E-09 


**** BIPOLAR JUNCTION TRANSISTORS


NAME         Q_Q7        Q_Q6        Q_Q2        Q_Q1        Q_Q4      
MODEL        QMJD31C     QMJD31C     QBC856B     QBC856B     QBC846B   
IB           3.33E-05    1.53E-04   -1.66E-06   -1.88E-06    1.64E-06 
IC           1.20E-04    1.48E-02   -5.52E-04   -5.20E-04    5.18E-04 
VBE          4.29E-01    5.85E-01   -6.18E-01   -6.21E-01    6.19E-01 
VBC         -7.96E+00   -8.39E+00    7.28E+00    0.00E+00   -1.34E+00 
VCE          8.39E+00    8.97E+00   -7.90E+00   -6.21E-01    1.95E+00 
BETADC       3.60E+00    9.67E+01    3.32E+02    2.77E+02    3.15E+02 
GM           3.86E-03    4.22E-01    2.12E-02    1.99E-02    2.00E-02 
RPI          3.05E+03    6.21E+02    1.58E+04    1.40E+04    1.57E+04 
RX           2.17E+01    1.98E+01    6.81E+00    6.62E+00    8.41E+00 
RO           2.46E+05    1.83E+03    7.96E+04    7.04E+04    1.55E+05 
CBE          7.04E-10    7.02E-09    3.88E-11    3.83E-11    3.30E-11 
CBC          1.19E-11    1.16E-11    1.20E-12    4.02E-12    1.28E-12 
CJS          0.00E+00    0.00E+00    0.00E+00    0.00E+00    0.00E+00 
BETAAC       1.18E+01    2.62E+02    3.35E+02    2.79E+02    3.14E+02 
CBX/CBX2     1.07E-10    1.04E-10    7.07E-13    2.37E-12    7.86E-13 
FT/FT2       7.48E+05    9.41E+06    8.29E+07    7.10E+07    9.10E+07 



NAME         Q_Q3        Q_Q5        Q_Q10       Q_Q8        Q_Q9      
MODEL        QBC846B     QBC846B     QBC846B     QBC817-25   QBC817-25 
IB           1.52E-06    3.33E-06   -1.01E-11    2.73E-06    9.49E-10 
IC           5.23E-04    1.04E-03    1.12E-11    9.79E-04    3.26E-07 
VBE          6.17E-01    6.38E-01    1.85E-02    5.98E-01    3.91E-01 
VBC         -8.62E+00   -1.35E+00   -1.01E+00   -9.29E+00   -3.65E+00 
VCE          9.24E+00    1.98E+00    1.03E+00    9.89E+00    4.04E+00 
BETADC       3.44E+02    3.14E+02   -1.11E+00    3.59E+02    3.43E+02 
GM           2.02E-02    4.02E-02    1.40E-12    3.76E-02    1.26E-05 
RPI          1.69E+04    7.73E+03    4.79E+13    9.52E+03    2.74E+07 
RX           8.47E+00    7.85E+00    1.00E+01    1.00E+00    1.00E+00 
RO           1.68E+05    7.70E+04    9.76E+11    1.17E+05    3.37E+08 
CBE          3.30E-11    4.41E-11    1.26E-11    9.65E-11    5.15E-11 
CBC          6.88E-13    1.28E-12    1.38E-12    1.69E-12    2.39E-12 
CJS          0.00E+00    0.00E+00    0.00E+00    0.00E+00    0.00E+00 
BETAAC       3.43E+02    3.11E+02    6.70E+01    3.58E+02    3.44E+02 
CBX/CBX2     4.23E-13    7.84E-13    8.45E-13    2.02E-12    2.85E-12 
FT/FT2       9.46E+07    1.39E+08    1.51E-02    5.97E+07    3.52E+04 



          JOB CONCLUDED

**** 11/15/25 22:55:05 ******* PSpice Lite (March 2016) ******* ID# 10813 ****

 ** Profile: "SCHEMATIC1-bias"  [ c:\users\crist\desktop\schematics\proiect-cef2-pspicefiles\schematic1\bias.sim ] 


 ****     JOB STATISTICS SUMMARY


******************************************************************************



  Total job time (using Solver 1)   =         .08
